
T0B0C 000:366 SEGGER J-Link V4.96d Log File (0003ms, 0281ms total)
T0B0C 000:366 DLL Compiled: Jan 29 2015 11:45:37 (0004ms, 0282ms total)
T0B0C 000:366 Logging started @ 2019-03-31 17:55 (0004ms, 0282ms total)
T0B0C 000:370 JLINK_SetWarnOutHandler(...) (0001ms, 0283ms total)
T0B0C 000:371 JLINK_OpenEx(...)
Firmware: J-Link ARM V8 compiled Nov 28 2014 13:44:46
Hardware: V8.00
S/N: 1631096626
Feature(s): RDI,FlashDL,FlashBP,JFlash,GDBFULL  returns O.K. (0277ms, 0560ms total)
T0B0C 000:648 JLINK_SetErrorOutHandler(...) (0001ms, 0561ms total)
T0B0C 000:649 JLINK_ExecCommand("ProjectFile = "C:\Users\14642\Desktop\Æ½ºâ³µ_V2\USER\JLinkSettings.ini"", ...)  returns 0x00 (0006ms, 0567ms total)
T0B0C 000:664 JLINK_ExecCommand("Device = STM32F407VE", ...)Device "STM32F407VE" selected.  returns 0x00 (0039ms, 0606ms total)
T0B0C 000:703 JLINK_ExecCommand("DisableConnectionTimeout", ...)  returns 0x01 (0000ms, 0607ms total)
T0B0C 000:704 JLINK_GetHardwareVersion()  returns 0x13880 (0001ms, 0608ms total)
T0B0C 000:705 JLINK_GetDLLVersion()  returns 49604 (0000ms, 0608ms total)
T0B0C 000:706 JLINK_GetFirmwareString(...) (0000ms, 0609ms total)
T0B0C 000:765 JLINK_GetDLLVersion()  returns 49604 (0001ms, 0610ms total)
T0B0C 000:766 JLINK_GetCompileDateTime() (0000ms, 0610ms total)
T0B0C 000:785 JLINK_GetFirmwareString(...) (0001ms, 0612ms total)
T0B0C 000:797 JLINK_GetHardwareVersion()  returns 0x13880 (0000ms, 0612ms total)
T0B0C 000:844 JLINK_TIF_Select(JLINKARM_TIF_SWD)  returns 0x00 (0001ms, 0613ms total)
T0B0C 000:845 JLINK_SetSpeed(5000) (0001ms, 0614ms total)
T0B0C 000:846 JLINK_GetId() >0x108 TIF>Found SWD-DP with ID 0x2BA01477 >0x0D TIF> >0x28 TIF> >0x0D TIF> >0x28 TIF> >0x0D TIF> >0x21 TIF> >0x0D TIF> >0x28 TIF> >0x0D TIF> >0x28 TIF> >0x0D TIF> >0x28 TIF> >0x0D TIF> >0x21 TIF> >0x0D TIF> >0x21 TIF> >0x0D TIF> >0x28 TIF> >0x0D TIF> >0x21 TIF> >0x0D TIF> >0x21 TIF> >0x0D TIF> >0x28 TIF> >0x0D TIF> >0x28 TIF> >0x0D TIF> >0x28 TIF> >0x0D TIF> >0x21 TIF> >0x0D TIF> >0x21 TIF> >0x0D TIF> >0x28 TIF> >0x0D TIF> >0x28 TIF> >0x108 TIF>Found SWD-DP with ID 0x2BA01477
 >0x0D TIF> >0x21 TIF> >0x0D TIF> >0x28 TIF> >0x0D TIF> >0x28 TIF> >0x0D TIF> >0x21 TIF> >0x0D TIF> >0x28 TIF> >0x0D TIF> >0x21 TIF> >0x0D TIF> >0x21 TIF> >0x0D TIF> >0x21 TIF> >0x0D TIF> >0x21 TIF> >0x0D TIF> >0x28 TIF> >0x0D TIF> >0x28 TIF> >0x0D TIF> >0x21 TIF> >0x0D TIF> >0x28 TIF> >0x0D TIF> >0x28 TIF> >0x0D TIF> >0x28 TIF> >0x0D TIF> >0x21 TIF> >0x0D TIF> >0x21 TIF> >0x0D TIF> >0x28 TIF> >0x0D TIF> >0x21 TIF> >0x0D TIF> >0x21 TIF>Found Cortex-M4 r0p1, Little endian.
 -- CPU_WriteMem(4 bytes @ 0xE0002000) -- CPU_ReadMem(4 bytes @ 0xE000EDF0) -- CPU_WriteMem(4 bytes @ 0xE000EDF0) -- CPU_ReadMem(4 bytes @ 0xE0002000)FPUnit: 6 code (BP) slots and 2 literal slots -- CPU_ReadMem(4 bytes @ 0xE000EDFC) -- CPU_WriteMem(4 bytes @ 0xE000EDFC) -- CPU_ReadMem(4 bytes @ 0xE0001000) -- CPU_WriteMem(4 bytes @ 0xE0001000) -- CPU_ReadMem(4 bytes @ 0xE000ED88) -- CPU_WriteMem(4 bytes @ 0xE000ED88) -- CPU_ReadMem(4 bytes @ 0xE000ED88) -- CPU_WriteMem(4 bytes @ 0xE000ED88)
 -- CPU_ReadMem(4 bytes @ 0xE00FF010)TPIU fitted. -- CPU_ReadMem(4 bytes @ 0xE00FF014)ETM fitted. -- CPU_ReadMem(4 bytes @ 0xE00FF018) >0x0D TIF> >0x21 TIF>  returns 0x2BA01477 (0158ms, 0772ms total)
T0B0C 001:004 JLINK_GetDLLVersion()  returns 49604 (0000ms, 0772ms total)
T0B0C 001:004 JLINK_CORE_GetFound()  returns 0xE0000FF (0001ms, 0773ms total)
T0B0C 001:005 JLINK_GetDebugInfo(0x100) -- Value=0xE00FF003  returns 0x00 (0001ms, 0774ms total)
T0B0C 001:024 JLINK_ReadMem (0xE00FF000, 0x0020 Bytes, ...) -- CPU is running -- CPU_ReadMem(32 bytes @ 0xE00FF000) - Data: 03 F0 F0 FF 03 20 F0 FF 03 30 F0 FF 03 10 F0 FF ...  returns 0x00 (0002ms, 0776ms total)
T0B0C 001:026 JLINK_ReadMem (0xE000EFF0, 0x0010 Bytes, ...) -- CPU is running -- CPU_ReadMem(16 bytes @ 0xE000EFF0) - Data: 0D 00 00 00 E0 00 00 00 05 00 00 00 B1 00 00 00  returns 0x00 (0001ms, 0777ms total)
T0B0C 001:028 JLINK_ReadMem (0xE000EFD0, 0x0020 Bytes, ...) -- CPU is running -- CPU_ReadMem(32 bytes @ 0xE000EFD0) - Data: 04 00 00 00 00 00 00 00 00 00 00 00 00 00 00 00 ...  returns 0x00 (0001ms, 0779ms total)
T0B0C 001:029 JLINK_ReadMem (0xE0001FF0, 0x0010 Bytes, ...) -- CPU is running -- CPU_ReadMem(16 bytes @ 0xE0001FF0) - Data: 0D 00 00 00 E0 00 00 00 05 00 00 00 B1 00 00 00  returns 0x00 (0002ms, 0781ms total)
T0B0C 001:031 JLINK_ReadMem (0xE0001FD0, 0x0020 Bytes, ...) -- CPU is running -- CPU_ReadMem(32 bytes @ 0xE0001FD0) - Data: 04 00 00 00 00 00 00 00 00 00 00 00 00 00 00 00 ...  returns 0x00 (0001ms, 0782ms total)
T0B0C 001:032 JLINK_ReadMem (0xE0002FF0, 0x0010 Bytes, ...) -- CPU is running -- CPU_ReadMem(16 bytes @ 0xE0002FF0) - Data: 0D 00 00 00 E0 00 00 00 05 00 00 00 B1 00 00 00  returns 0x00 (0002ms, 0784ms total)
T0B0C 001:034 JLINK_ReadMem (0xE0002FD0, 0x0020 Bytes, ...) -- CPU is running -- CPU_ReadMem(32 bytes @ 0xE0002FD0) - Data: 04 00 00 00 00 00 00 00 00 00 00 00 00 00 00 00 ...  returns 0x00 (0002ms, 0786ms total)
T0B0C 001:036 JLINK_ReadMem (0xE0000FF0, 0x0010 Bytes, ...) -- CPU is running -- CPU_ReadMem(16 bytes @ 0xE0000FF0) - Data: 0D 00 00 00 E0 00 00 00 05 00 00 00 B1 00 00 00  returns 0x00 (0001ms, 0787ms total)
T0B0C 001:037 JLINK_ReadMem (0xE0000FD0, 0x0020 Bytes, ...) -- CPU is running -- CPU_ReadMem(32 bytes @ 0xE0000FD0) - Data: 04 00 00 00 00 00 00 00 00 00 00 00 00 00 00 00 ...  returns 0x00 (0002ms, 0789ms total)
T0B0C 001:039 JLINK_ReadMem (0xE0040FF0, 0x0010 Bytes, ...) -- CPU is running -- CPU_ReadMem(16 bytes @ 0xE0040FF0) - Data: 0D 00 00 00 90 00 00 00 05 00 00 00 B1 00 00 00  returns 0x00 (0001ms, 0790ms total)
T0B0C 001:040 JLINK_ReadMem (0xE0040FD0, 0x0020 Bytes, ...) -- CPU is running -- CPU_ReadMem(32 bytes @ 0xE0040FD0) - Data: 04 00 00 00 00 00 00 00 00 00 00 00 00 00 00 00 ...  returns 0x00 (0002ms, 0792ms total)
T0B0C 001:042 JLINK_ReadMem (0xE0041FF0, 0x0010 Bytes, ...) -- CPU is running -- CPU_ReadMem(16 bytes @ 0xE0041FF0) - Data: 0D 00 00 00 90 00 00 00 05 00 00 00 B1 00 00 00  returns 0x00 (0001ms, 0793ms total)
T0B0C 001:043 JLINK_ReadMem (0xE0041FD0, 0x0020 Bytes, ...) -- CPU is running -- CPU_ReadMem(32 bytes @ 0xE0041FD0) - Data: 04 00 00 00 00 00 00 00 00 00 00 00 00 00 00 00 ...  returns 0x00 (0002ms, 0795ms total)
T0B0C 001:045 JLINK_ReadMemU32(0xE000EF40, 0x0001 Items, ...) -- CPU is running -- CPU_ReadMem(4 bytes @ 0xE000EF40) - Data: 21 00 11 10  returns 0x01 (0001ms, 0796ms total)
T0B0C 001:046 JLINK_ReadMemU32(0xE000EF44, 0x0001 Items, ...) -- CPU is running -- CPU_ReadMem(4 bytes @ 0xE000EF44) - Data: 11 00 00 11  returns 0x01 (0002ms, 0798ms total)
T0B0C 001:048 JLINK_ReadMemU32(0xE000ED00, 0x0001 Items, ...) -- CPU is running -- CPU_ReadMem(4 bytes @ 0xE000ED00) - Data: 41 C2 0F 41  returns 0x01 (0001ms, 0799ms total)
T0B0C 001:049 JLINK_SetResetType(JLINKARM_RESET_TYPE_NORMAL)  returns JLINKARM_RESET_TYPE_NORMAL (0000ms, 0799ms total)
T0B0C 001:049 JLINK_Reset() -- CPU is running -- CPU_WriteMem(4 bytes @ 0xE000EDF0) -- CPU is running -- CPU_WriteMem(4 bytes @ 0xE000EDFC) >0x35 TIF> -- CPU is running -- CPU_WriteMem(4 bytes @ 0xE000ED0C) -- CPU is running -- CPU_ReadMem(4 bytes @ 0xE000EDF0) -- CPU is running -- CPU_ReadMem(4 bytes @ 0xE000EDF0) -- CPU is running -- CPU_WriteMem(4 bytes @ 0xE000EDF0) -- CPU is running -- CPU_WriteMem(4 bytes @ 0xE000EDFC) -- CPU is running -- CPU_ReadMem(4 bytes @ 0xE000EDF0)
 -- CPU_WriteMem(4 bytes @ 0xE0002000) -- CPU_ReadMem(4 bytes @ 0xE000EDFC) -- CPU_ReadMem(4 bytes @ 0xE0001000) (0022ms, 0821ms total)
T0B0C 001:071 JLINK_Halt()  returns 0x00 (0001ms, 0822ms total)
T0B0C 001:072 JLINK_IsHalted()  returns TRUE (0000ms, 0822ms total)
T0B0C 001:072 JLINK_ReadMemU32(0xE000EDF0, 0x0001 Items, ...) -- CPU_ReadMem(4 bytes @ 0xE000EDF0) - Data: 03 00 03 00  returns 0x01 (0001ms, 0823ms total)
T0B0C 001:073 JLINK_WriteU32(0xE000EDF0, 0xA05F0003) -- CPU_WriteMem(4 bytes @ 0xE000EDF0)  returns 0x00 (0001ms, 0824ms total)
T0B0C 001:075 JLINK_WriteU32(0xE000EDFC, 0x01000000) -- CPU_WriteMem(4 bytes @ 0xE000EDFC)  returns 0x00 (0001ms, 0826ms total)
T0B0C 001:113 JLINK_GetHWStatus(...)  returns 0x00 (0001ms, 0827ms total)
T0B0C 001:147 JLINK_GetNumBPUnits(Type = 0xFFFFFF00)  returns 0x06 (0001ms, 0828ms total)
T0B0C 001:148 JLINK_GetNumBPUnits(Type = 0xF0)  returns 0x2000 (0000ms, 0828ms total)
T0B0C 001:148 JLINK_GetNumWPUnits()  returns 0x04 (0001ms, 0829ms total)
T0B0C 001:180 JLINK_GetSpeed()  returns 0xFA0 (0000ms, 0829ms total)
T0B0C 001:206 JLINK_ReadMemU32(0xE000E004, 0x0001 Items, ...) -- CPU_ReadMem(4 bytes @ 0xE000E004) - Data: 02 00 00 00  returns 0x01 (0001ms, 0830ms total)
T0B0C 001:207 JLINK_ReadMemU32(0xE000E004, 0x0001 Items, ...) -- CPU_ReadMem(4 bytes @ 0xE000E004) - Data: 02 00 00 00  returns 0x01 (0001ms, 0831ms total)
T0B0C 001:208 JLINK_WriteMem(0xE0001000, 0x001C Bytes, ...) - Data: 01 00 00 00 00 00 00 00 00 00 00 00 00 00 00 00 ... -- CPU_WriteMem(28 bytes @ 0xE0001000)  returns 0x1C (0003ms, 0834ms total)
T0B0C 001:211 JLINK_ReadMem (0xE0001000, 0x001C Bytes, ...) -- CPU_ReadMem(28 bytes @ 0xE0001000) - Data: 01 00 00 40 00 00 00 00 00 00 00 00 00 00 00 00 ...  returns 0x00 (0002ms, 0836ms total)
T0B0C 001:213 JLINK_Halt()  returns 0x00 (0000ms, 0836ms total)
T0B0C 001:214 JLINK_IsHalted()  returns TRUE (0000ms, 0837ms total)
T0B0C 001:225 JLINK_WriteMem(0x20000000, 0x0188 Bytes, ...) - Data: 00 BE 0A E0 0D 78 2D 06 68 40 08 24 40 00 00 D3 ... -- CPU_WriteMem(392 bytes @ 0x20000000)  returns 0x188 (0006ms, 0843ms total)
T0B0C 001:231 JLINK_WriteReg(R0, 0x08000000)  returns 0x00 (0000ms, 0843ms total)
T0B0C 001:231 JLINK_WriteReg(R1, 0x00B71B00)  returns 0x00 (0001ms, 0844ms total)
T0B0C 001:232 JLINK_WriteReg(R2, 0x00000001)  returns 0x00 (0000ms, 0844ms total)
T0B0C 001:232 JLINK_WriteReg(R3, 0x00000000)  returns 0x00 (0001ms, 0845ms total)
T0B0C 001:233 JLINK_WriteReg(R4, 0x00000000)  returns 0x00 (0000ms, 0845ms total)
T0B0C 001:233 JLINK_WriteReg(R5, 0x00000000)  returns 0x00 (0000ms, 0845ms total)
T0B0C 001:233 JLINK_WriteReg(R6, 0x00000000)  returns 0x00 (0000ms, 0845ms total)
T0B0C 001:233 JLINK_WriteReg(R7, 0x00000000)  returns 0x00 (0002ms, 0847ms total)
T0B0C 001:235 JLINK_WriteReg(R8, 0x00000000)  returns 0x00 (0000ms, 0847ms total)
T0B0C 001:235 JLINK_WriteReg(R9, 0x20000184)  returns 0x00 (0001ms, 0848ms total)
T0B0C 001:236 JLINK_WriteReg(R10, 0x00000000)  returns 0x00 (0000ms, 0848ms total)
T0B0C 001:236 JLINK_WriteReg(R11, 0x00000000)  returns 0x00 (0001ms, 0849ms total)
T0B0C 001:237 JLINK_WriteReg(R12, 0x00000000)  returns 0x00 (0000ms, 0849ms total)
T0B0C 001:237 JLINK_WriteReg(R13 (SP), 0x20001000)  returns 0x00 (0000ms, 0849ms total)
T0B0C 001:237 JLINK_WriteReg(R14, 0x20000001)  returns 0x00 (0000ms, 0849ms total)
T0B0C 001:237 JLINK_WriteReg(R15 (PC), 0x2000005E)  returns 0x00 (0001ms, 0850ms total)
T0B0C 001:238 JLINK_WriteReg(XPSR, 0x01000000)  returns 0x00 (0000ms, 0850ms total)
T0B0C 001:238 JLINK_WriteReg(MSP, 0x20001000)  returns 0x00 (0001ms, 0851ms total)
T0B0C 001:239 JLINK_WriteReg(PSP, 0x20001000)  returns 0x00 (0000ms, 0851ms total)
T0B0C 001:239 JLINK_WriteReg(CFBP, 0x00000000)  returns 0x00 (0001ms, 0852ms total)
T0B0C 001:240 JLINK_SetBPEx(Addr = 0x20000000, Type = 0xFFFFFFF2) -- CPU_ReadMem(2 bytes @ 0x20000000)  returns 0x00000001 (0001ms, 0853ms total)
T0B0C 001:241 JLINK_Go() -- CPU_WriteMem(2 bytes @ 0x20000000) -- CPU_WriteMem(4 bytes @ 0xE0002008) -- CPU_WriteMem(4 bytes @ 0xE000200C) -- CPU_WriteMem(4 bytes @ 0xE0002010) -- CPU_WriteMem(4 bytes @ 0xE0002014) -- CPU_WriteMem(4 bytes @ 0xE0002018) -- CPU_WriteMem(4 bytes @ 0xE000201C) -- CPU_WriteMem(4 bytes @ 0xE0001004) (0006ms, 0859ms total)
T0B0C 001:247 JLINK_IsHalted() -- CPU_ReadMem(2 bytes @ 0x20000000)  returns TRUE (0004ms, 0863ms total)
T0B0C 001:251 JLINK_ReadReg(R15 (PC))  returns 0x20000000 (0000ms, 0859ms total)
T0B0C 001:251 JLINK_ClrBPEx(BPHandle = 0x00000001)  returns 0x00 (0001ms, 0860ms total)
T0B0C 001:252 JLINK_ReadReg(R0)  returns 0x00000000 (0000ms, 0860ms total)
T0B0C 001:254 JLINK_WriteReg(R0, 0x08000000)  returns 0x00 (0000ms, 0860ms total)
T0B0C 001:254 JLINK_WriteReg(R1, 0x00004000)  returns 0x00 (0000ms, 0860ms total)
T0B0C 001:255 JLINK_WriteReg(R2, 0x000000FF)  returns 0x00 (0000ms, 0861ms total)
T0B0C 001:255 JLINK_WriteReg(R3, 0x00000000)  returns 0x00 (0001ms, 0862ms total)
T0B0C 001:256 JLINK_WriteReg(R4, 0x00000000)  returns 0x00 (0000ms, 0862ms total)
T0B0C 001:256 JLINK_WriteReg(R5, 0x00000000)  returns 0x00 (0001ms, 0863ms total)
T0B0C 001:257 JLINK_WriteReg(R6, 0x00000000)  returns 0x00 (0000ms, 0863ms total)
T0B0C 001:257 JLINK_WriteReg(R7, 0x00000000)  returns 0x00 (0001ms, 0864ms total)
T0B0C 001:258 JLINK_WriteReg(R8, 0x00000000)  returns 0x00 (0000ms, 0864ms total)
T0B0C 001:258 JLINK_WriteReg(R9, 0x20000184)  returns 0x00 (0001ms, 0865ms total)
T0B0C 001:259 JLINK_WriteReg(R10, 0x00000000)  returns 0x00 (0000ms, 0865ms total)
T0B0C 001:259 JLINK_WriteReg(R11, 0x00000000)  returns 0x00 (0001ms, 0866ms total)
T0B0C 001:260 JLINK_WriteReg(R12, 0x00000000)  returns 0x00 (0000ms, 0866ms total)
T0B0C 001:260 JLINK_WriteReg(R13 (SP), 0x20001000)  returns 0x00 (0001ms, 0867ms total)
T0B0C 001:261 JLINK_WriteReg(R14, 0x20000001)  returns 0x00 (0000ms, 0867ms total)
T0B0C 001:261 JLINK_WriteReg(R15 (PC), 0x20000020)  returns 0x00 (0001ms, 0868ms total)
T0B0C 001:262 JLINK_WriteReg(XPSR, 0x01000000)  returns 0x00 (0000ms, 0868ms total)
T0B0C 001:262 JLINK_WriteReg(MSP, 0x20001000)  returns 0x00 (0001ms, 0869ms total)
T0B0C 001:263 JLINK_WriteReg(PSP, 0x20001000)  returns 0x00 (0000ms, 0869ms total)
T0B0C 001:263 JLINK_WriteReg(CFBP, 0x00000000)  returns 0x00 (0001ms, 0870ms total)
T0B0C 001:264 JLINK_SetBPEx(Addr = 0x20000000, Type = 0xFFFFFFF2)  returns 0x00000002 (0000ms, 0870ms total)
T0B0C 001:264 JLINK_Go() (0002ms, 0872ms total)
T0B0C 001:266 JLINK_IsHalted() -- CPU_ReadMem(2 bytes @ 0x20000000)  returns TRUE (0004ms, 0876ms total)
T0B0C 001:270 JLINK_ReadReg(R15 (PC))  returns 0x20000000 (0000ms, 0872ms total)
T0B0C 001:270 JLINK_ClrBPEx(BPHandle = 0x00000002)  returns 0x00 (0001ms, 0873ms total)
T0B0C 001:271 JLINK_ReadReg(R0)  returns 0x00000001 (0000ms, 0873ms total)
T0B0C 001:271 JLINK_WriteReg(R0, 0x08000000)  returns 0x00 (0001ms, 0874ms total)
T0B0C 001:272 JLINK_WriteReg(R1, 0x00004000)  returns 0x00 (0000ms, 0874ms total)
T0B0C 001:272 JLINK_WriteReg(R2, 0x000000FF)  returns 0x00 (0001ms, 0875ms total)
T0B0C 001:273 JLINK_WriteReg(R3, 0x00000000)  returns 0x00 (0000ms, 0875ms total)
T0B0C 001:273 JLINK_WriteReg(R4, 0x00000000)  returns 0x00 (0001ms, 0876ms total)
T0B0C 001:274 JLINK_WriteReg(R5, 0x00000000)  returns 0x00 (0000ms, 0876ms total)
T0B0C 001:274 JLINK_WriteReg(R6, 0x00000000)  returns 0x00 (0001ms, 0877ms total)
T0B0C 001:275 JLINK_WriteReg(R7, 0x00000000)  returns 0x00 (0000ms, 0877ms total)
T0B0C 001:275 JLINK_WriteReg(R8, 0x00000000)  returns 0x00 (0001ms, 0878ms total)
T0B0C 001:276 JLINK_WriteReg(R9, 0x20000184)  returns 0x00 (0000ms, 0878ms total)
T0B0C 001:276 JLINK_WriteReg(R10, 0x00000000)  returns 0x00 (0001ms, 0879ms total)
T0B0C 001:277 JLINK_WriteReg(R11, 0x00000000)  returns 0x00 (0000ms, 0879ms total)
T0B0C 001:277 JLINK_WriteReg(R12, 0x00000000)  returns 0x00 (0001ms, 0880ms total)
T0B0C 001:278 JLINK_WriteReg(R13 (SP), 0x20001000)  returns 0x00 (0000ms, 0880ms total)
T0B0C 001:278 JLINK_WriteReg(R14, 0x20000001)  returns 0x00 (0001ms, 0881ms total)
T0B0C 001:279 JLINK_WriteReg(R15 (PC), 0x200000C6)  returns 0x00 (0000ms, 0881ms total)
T0B0C 001:279 JLINK_WriteReg(XPSR, 0x01000000)  returns 0x00 (0001ms, 0882ms total)
T0B0C 001:280 JLINK_WriteReg(MSP, 0x20001000)  returns 0x00 (0000ms, 0882ms total)
T0B0C 001:280 JLINK_WriteReg(PSP, 0x20001000)  returns 0x00 (0001ms, 0883ms total)
T0B0C 001:281 JLINK_WriteReg(CFBP, 0x00000000)  returns 0x00 (0000ms, 0883ms total)
T0B0C 001:281 JLINK_SetBPEx(Addr = 0x20000000, Type = 0xFFFFFFF2)  returns 0x00000003 (0001ms, 0884ms total)
T0B0C 001:282 JLINK_Go() (0002ms, 0886ms total)
T0B0C 001:284 JLINK_IsHalted()  returns FALSE (0001ms, 0887ms total)
T0B0C 001:628 JLINK_IsHalted()  returns FALSE (0001ms, 0887ms total)
T0B0C 001:757 JLINK_IsHalted() -- CPU_ReadMem(2 bytes @ 0x20000000)  returns TRUE (0003ms, 0889ms total)
T0B0C 001:761 JLINK_ReadReg(R15 (PC))  returns 0x20000000 (0000ms, 0886ms total)
T0B0C 001:761 JLINK_ClrBPEx(BPHandle = 0x00000003)  returns 0x00 (0001ms, 0887ms total)
T0B0C 001:762 JLINK_ReadReg(R0)  returns 0x00000000 (0000ms, 0887ms total)
T0B0C 001:765 JLINK_WriteReg(R0, 0x08004000)  returns 0x00 (0001ms, 0888ms total)
T0B0C 001:766 JLINK_WriteReg(R1, 0x00004000)  returns 0x00 (0000ms, 0888ms total)
T0B0C 001:766 JLINK_WriteReg(R2, 0x000000FF)  returns 0x00 (0001ms, 0889ms total)
T0B0C 001:767 JLINK_WriteReg(R3, 0x00000000)  returns 0x00 (0000ms, 0889ms total)
T0B0C 001:767 JLINK_WriteReg(R4, 0x00000000)  returns 0x00 (0001ms, 0890ms total)
T0B0C 001:768 JLINK_WriteReg(R5, 0x00000000)  returns 0x00 (0000ms, 0890ms total)
T0B0C 001:768 JLINK_WriteReg(R6, 0x00000000)  returns 0x00 (0001ms, 0891ms total)
T0B0C 001:769 JLINK_WriteReg(R7, 0x00000000)  returns 0x00 (0000ms, 0891ms total)
T0B0C 001:769 JLINK_WriteReg(R8, 0x00000000)  returns 0x00 (0001ms, 0892ms total)
T0B0C 001:770 JLINK_WriteReg(R9, 0x20000184)  returns 0x00 (0000ms, 0892ms total)
T0B0C 001:770 JLINK_WriteReg(R10, 0x00000000)  returns 0x00 (0001ms, 0893ms total)
T0B0C 001:771 JLINK_WriteReg(R11, 0x00000000)  returns 0x00 (0000ms, 0893ms total)
T0B0C 001:771 JLINK_WriteReg(R12, 0x00000000)  returns 0x00 (0001ms, 0894ms total)
T0B0C 001:772 JLINK_WriteReg(R13 (SP), 0x20001000)  returns 0x00 (0000ms, 0894ms total)
T0B0C 001:772 JLINK_WriteReg(R14, 0x20000001)  returns 0x00 (0001ms, 0895ms total)
T0B0C 001:773 JLINK_WriteReg(R15 (PC), 0x20000020)  returns 0x00 (0000ms, 0895ms total)
T0B0C 001:773 JLINK_WriteReg(XPSR, 0x01000000)  returns 0x00 (0001ms, 0896ms total)
T0B0C 001:774 JLINK_WriteReg(MSP, 0x20001000)  returns 0x00 (0001ms, 0897ms total)
T0B0C 001:775 JLINK_WriteReg(PSP, 0x20001000)  returns 0x00 (0000ms, 0897ms total)
T0B0C 001:775 JLINK_WriteReg(CFBP, 0x00000000)  returns 0x00 (0001ms, 0898ms total)
T0B0C 001:776 JLINK_SetBPEx(Addr = 0x20000000, Type = 0xFFFFFFF2)  returns 0x00000004 (0000ms, 0898ms total)
T0B0C 001:776 JLINK_Go() (0002ms, 0900ms total)
T0B0C 001:779 JLINK_IsHalted() -- CPU_ReadMem(2 bytes @ 0x20000000)  returns TRUE (0003ms, 0904ms total)
T0B0C 001:782 JLINK_ReadReg(R15 (PC))  returns 0x20000000 (0001ms, 0902ms total)
T0B0C 001:783 JLINK_ClrBPEx(BPHandle = 0x00000004)  returns 0x00 (0000ms, 0902ms total)
T0B0C 001:783 JLINK_ReadReg(R0)  returns 0x00000001 (0001ms, 0903ms total)
T0B0C 001:784 JLINK_WriteReg(R0, 0x08004000)  returns 0x00 (0000ms, 0903ms total)
T0B0C 001:784 JLINK_WriteReg(R1, 0x00004000)  returns 0x00 (0001ms, 0904ms total)
T0B0C 001:785 JLINK_WriteReg(R2, 0x000000FF)  returns 0x00 (0000ms, 0904ms total)
T0B0C 001:785 JLINK_WriteReg(R3, 0x00000000)  returns 0x00 (0001ms, 0905ms total)
T0B0C 001:786 JLINK_WriteReg(R4, 0x00000000)  returns 0x00 (0000ms, 0905ms total)
T0B0C 001:786 JLINK_WriteReg(R5, 0x00000000)  returns 0x00 (0001ms, 0906ms total)
T0B0C 001:787 JLINK_WriteReg(R6, 0x00000000)  returns 0x00 (0000ms, 0906ms total)
T0B0C 001:787 JLINK_WriteReg(R7, 0x00000000)  returns 0x00 (0001ms, 0907ms total)
T0B0C 001:788 JLINK_WriteReg(R8, 0x00000000)  returns 0x00 (0000ms, 0907ms total)
T0B0C 001:788 JLINK_WriteReg(R9, 0x20000184)  returns 0x00 (0001ms, 0908ms total)
T0B0C 001:789 JLINK_WriteReg(R10, 0x00000000)  returns 0x00 (0000ms, 0908ms total)
T0B0C 001:790 JLINK_WriteReg(R11, 0x00000000)  returns 0x00 (0000ms, 0909ms total)
T0B0C 001:790 JLINK_WriteReg(R12, 0x00000000)  returns 0x00 (0001ms, 0910ms total)
T0B0C 001:791 JLINK_WriteReg(R13 (SP), 0x20001000)  returns 0x00 (0000ms, 0910ms total)
T0B0C 001:791 JLINK_WriteReg(R14, 0x20000001)  returns 0x00 (0001ms, 0911ms total)
T0B0C 001:792 JLINK_WriteReg(R15 (PC), 0x200000C6)  returns 0x00 (0000ms, 0911ms total)
T0B0C 001:793 JLINK_WriteReg(XPSR, 0x01000000)  returns 0x00 (0000ms, 0911ms total)
T0B0C 001:793 JLINK_WriteReg(MSP, 0x20001000)  returns 0x00 (0000ms, 0911ms total)
T0B0C 001:794 JLINK_WriteReg(PSP, 0x20001000)  returns 0x00 (0000ms, 0912ms total)
T0B0C 001:794 JLINK_WriteReg(CFBP, 0x00000000)  returns 0x00 (0000ms, 0912ms total)
T0B0C 001:794 JLINK_SetBPEx(Addr = 0x20000000, Type = 0xFFFFFFF2)  returns 0x00000005 (0001ms, 0913ms total)
T0B0C 001:795 JLINK_Go() (0002ms, 0915ms total)
T0B0C 001:797 JLINK_IsHalted()  returns FALSE (0001ms, 0916ms total)
T0B0C 001:879 JLINK_IsHalted()  returns FALSE (0001ms, 0916ms total)
T0B0C 001:882 JLINK_IsHalted()  returns FALSE (0001ms, 0916ms total)
T0B0C 001:885 JLINK_IsHalted()  returns FALSE (0001ms, 0916ms total)
T0B0C 001:976 JLINK_IsHalted()  returns FALSE (0001ms, 0916ms total)
T0B0C 002:069 JLINK_IsHalted()  returns FALSE (0001ms, 0916ms total)
T0B0C 002:072 JLINK_IsHalted()  returns FALSE (0001ms, 0916ms total)
T0B0C 002:083 JLINK_IsHalted()  returns FALSE (0001ms, 0916ms total)
T0B0C 002:100 JLINK_IsHalted()  returns FALSE (0001ms, 0916ms total)
T0B0C 002:112 JLINK_IsHalted()  returns FALSE (0001ms, 0916ms total)
T0B0C 002:115 JLINK_IsHalted()  returns FALSE (0001ms, 0916ms total)
T0B0C 002:166 JLINK_IsHalted() -- CPU_ReadMem(2 bytes @ 0x20000000)  returns TRUE (0003ms, 0918ms total)
T0B0C 002:169 JLINK_ReadReg(R15 (PC))  returns 0x20000000 (0001ms, 0916ms total)
T0B0C 002:170 JLINK_ClrBPEx(BPHandle = 0x00000005)  returns 0x00 (0000ms, 0916ms total)
T0B0C 002:171 JLINK_ReadReg(R0)  returns 0x00000000 (0000ms, 0917ms total)
T0B0C 002:172 JLINK_WriteReg(R0, 0x00000001)  returns 0x00 (0000ms, 0917ms total)
T0B0C 002:173 JLINK_WriteReg(R1, 0x00004000)  returns 0x00 (0000ms, 0918ms total)
T0B0C 002:173 JLINK_WriteReg(R2, 0x000000FF)  returns 0x00 (0001ms, 0919ms total)
T0B0C 002:174 JLINK_WriteReg(R3, 0x00000000)  returns 0x00 (0000ms, 0919ms total)
T0B0C 002:174 JLINK_WriteReg(R4, 0x00000000)  returns 0x00 (0000ms, 0919ms total)
T0B0C 002:175 JLINK_WriteReg(R5, 0x00000000)  returns 0x00 (0000ms, 0920ms total)
T0B0C 002:175 JLINK_WriteReg(R6, 0x00000000)  returns 0x00 (0000ms, 0920ms total)
T0B0C 002:176 JLINK_WriteReg(R7, 0x00000000)  returns 0x00 (0000ms, 0921ms total)
T0B0C 002:176 JLINK_WriteReg(R8, 0x00000000)  returns 0x00 (0000ms, 0921ms total)
T0B0C 002:177 JLINK_WriteReg(R9, 0x20000184)  returns 0x00 (0000ms, 0922ms total)
T0B0C 002:177 JLINK_WriteReg(R10, 0x00000000)  returns 0x00 (0000ms, 0922ms total)
T0B0C 002:178 JLINK_WriteReg(R11, 0x00000000)  returns 0x00 (0000ms, 0923ms total)
T0B0C 002:178 JLINK_WriteReg(R12, 0x00000000)  returns 0x00 (0000ms, 0923ms total)
T0B0C 002:179 JLINK_WriteReg(R13 (SP), 0x20001000)  returns 0x00 (0000ms, 0924ms total)
T0B0C 002:179 JLINK_WriteReg(R14, 0x20000001)  returns 0x00 (0000ms, 0924ms total)
T0B0C 002:180 JLINK_WriteReg(R15 (PC), 0x2000008C)  returns 0x00 (0000ms, 0925ms total)
T0B0C 002:180 JLINK_WriteReg(XPSR, 0x01000000)  returns 0x00 (0000ms, 0925ms total)
T0B0C 002:180 JLINK_WriteReg(MSP, 0x20001000)  returns 0x00 (0001ms, 0926ms total)
T0B0C 002:181 JLINK_WriteReg(PSP, 0x20001000)  returns 0x00 (0000ms, 0926ms total)
T0B0C 002:181 JLINK_WriteReg(CFBP, 0x00000000)  returns 0x00 (0001ms, 0927ms total)
T0B0C 002:182 JLINK_SetBPEx(Addr = 0x20000000, Type = 0xFFFFFFF2)  returns 0x00000006 (0000ms, 0927ms total)
T0B0C 002:182 JLINK_Go() (0003ms, 0930ms total)
T0B0C 002:185 JLINK_IsHalted() -- CPU_ReadMem(2 bytes @ 0x20000000)  returns TRUE (0004ms, 0934ms total)
T0B0C 002:189 JLINK_ReadReg(R15 (PC))  returns 0x20000000 (0000ms, 0930ms total)
T0B0C 002:189 JLINK_ClrBPEx(BPHandle = 0x00000006)  returns 0x00 (0001ms, 0931ms total)
T0B0C 002:190 JLINK_ReadReg(R0)  returns 0x00000000 (0000ms, 0931ms total)
T0B0C 002:267 JLINK_WriteMem(0x20000000, 0x0188 Bytes, ...) - Data: 00 BE 0A E0 0D 78 2D 06 68 40 08 24 40 00 00 D3 ... -- CPU_WriteMem(392 bytes @ 0x20000000)  returns 0x188 (0004ms, 0935ms total)
T0B0C 002:271 JLINK_WriteReg(R0, 0x08000000)  returns 0x00 (0001ms, 0936ms total)
T0B0C 002:272 JLINK_WriteReg(R1, 0x00B71B00)  returns 0x00 (0000ms, 0936ms total)
T0B0C 002:272 JLINK_WriteReg(R2, 0x00000002)  returns 0x00 (0001ms, 0937ms total)
T0B0C 002:273 JLINK_WriteReg(R3, 0x00000000)  returns 0x00 (0000ms, 0937ms total)
T0B0C 002:273 JLINK_WriteReg(R4, 0x00000000)  returns 0x00 (0001ms, 0938ms total)
T0B0C 002:274 JLINK_WriteReg(R5, 0x00000000)  returns 0x00 (0000ms, 0938ms total)
T0B0C 002:274 JLINK_WriteReg(R6, 0x00000000)  returns 0x00 (0001ms, 0939ms total)
T0B0C 002:275 JLINK_WriteReg(R7, 0x00000000)  returns 0x00 (0000ms, 0939ms total)
T0B0C 002:275 JLINK_WriteReg(R8, 0x00000000)  returns 0x00 (0001ms, 0940ms total)
T0B0C 002:276 JLINK_WriteReg(R9, 0x20000184)  returns 0x00 (0000ms, 0940ms total)
T0B0C 002:276 JLINK_WriteReg(R10, 0x00000000)  returns 0x00 (0001ms, 0941ms total)
T0B0C 002:277 JLINK_WriteReg(R11, 0x00000000)  returns 0x00 (0000ms, 0941ms total)
T0B0C 002:277 JLINK_WriteReg(R12, 0x00000000)  returns 0x00 (0001ms, 0942ms total)
T0B0C 002:278 JLINK_WriteReg(R13 (SP), 0x20001000)  returns 0x00 (0000ms, 0942ms total)
T0B0C 002:278 JLINK_WriteReg(R14, 0x20000001)  returns 0x00 (0001ms, 0943ms total)
T0B0C 002:279 JLINK_WriteReg(R15 (PC), 0x2000005E)  returns 0x00 (0000ms, 0943ms total)
T0B0C 002:279 JLINK_WriteReg(XPSR, 0x01000000)  returns 0x00 (0001ms, 0944ms total)
T0B0C 002:280 JLINK_WriteReg(MSP, 0x20001000)  returns 0x00 (0001ms, 0945ms total)
T0B0C 002:281 JLINK_WriteReg(PSP, 0x20001000)  returns 0x00 (0000ms, 0945ms total)
T0B0C 002:281 JLINK_WriteReg(CFBP, 0x00000000)  returns 0x00 (0001ms, 0946ms total)
T0B0C 002:282 JLINK_SetBPEx(Addr = 0x20000000, Type = 0xFFFFFFF2) -- CPU_ReadMem(2 bytes @ 0x20000000)  returns 0x00000007 (0001ms, 0947ms total)
T0B0C 002:283 JLINK_Go() -- CPU_WriteMem(2 bytes @ 0x20000000) (0002ms, 0949ms total)
T0B0C 002:286 JLINK_IsHalted() -- CPU_ReadMem(2 bytes @ 0x20000000)  returns TRUE (0003ms, 0953ms total)
T0B0C 002:290 JLINK_ReadReg(R15 (PC))  returns 0x20000000 (0000ms, 0950ms total)
T0B0C 002:290 JLINK_ClrBPEx(BPHandle = 0x00000007)  returns 0x00 (0000ms, 0950ms total)
T0B0C 002:291 JLINK_ReadReg(R0)  returns 0x00000000 (0000ms, 0950ms total)
T0B0C 002:292 JLINK_WriteMem(0x20000188, 0x0400 Bytes, ...) - Data: 98 10 00 20 89 02 00 08 D3 0E 00 08 2F 0C 00 08 ... -- CPU_WriteMem(1024 bytes @ 0x20000188)  returns 0x400 (0007ms, 0957ms total)
T0B0C 002:299 JLINK_WriteReg(R0, 0x08000000)  returns 0x00 (0001ms, 0958ms total)
T0B0C 002:300 JLINK_WriteReg(R1, 0x00000400)  returns 0x00 (0000ms, 0958ms total)
T0B0C 002:300 JLINK_WriteReg(R2, 0x20000188)  returns 0x00 (0001ms, 0959ms total)
T0B0C 002:301 JLINK_WriteReg(R3, 0x00000000)  returns 0x00 (0001ms, 0960ms total)
T0B0C 002:302 JLINK_WriteReg(R4, 0x00000000)  returns 0x00 (0000ms, 0960ms total)
T0B0C 002:302 JLINK_WriteReg(R5, 0x00000000)  returns 0x00 (0001ms, 0961ms total)
T0B0C 002:303 JLINK_WriteReg(R6, 0x00000000)  returns 0x00 (0000ms, 0961ms total)
T0B0C 002:304 JLINK_WriteReg(R7, 0x00000000)  returns 0x00 (0000ms, 0962ms total)
T0B0C 002:304 JLINK_WriteReg(R8, 0x00000000)  returns 0x00 (0000ms, 0962ms total)
T0B0C 002:305 JLINK_WriteReg(R9, 0x20000184)  returns 0x00 (0000ms, 0963ms total)
T0B0C 002:305 JLINK_WriteReg(R10, 0x00000000)  returns 0x00 (0000ms, 0963ms total)
T0B0C 002:306 JLINK_WriteReg(R11, 0x00000000)  returns 0x00 (0000ms, 0964ms total)
T0B0C 002:306 JLINK_WriteReg(R12, 0x00000000)  returns 0x00 (0001ms, 0965ms total)
T0B0C 002:307 JLINK_WriteReg(R13 (SP), 0x20001000)  returns 0x00 (0000ms, 0965ms total)
T0B0C 002:307 JLINK_WriteReg(R14, 0x20000001)  returns 0x00 (0000ms, 0965ms total)
T0B0C 002:308 JLINK_WriteReg(R15 (PC), 0x20000112)  returns 0x00 (0000ms, 0966ms total)
T0B0C 002:308 JLINK_WriteReg(XPSR, 0x01000000)  returns 0x00 (0001ms, 0967ms total)
T0B0C 002:309 JLINK_WriteReg(MSP, 0x20001000)  returns 0x00 (0000ms, 0967ms total)
T0B0C 002:309 JLINK_WriteReg(PSP, 0x20001000)  returns 0x00 (0001ms, 0968ms total)
T0B0C 002:310 JLINK_WriteReg(CFBP, 0x00000000)  returns 0x00 (0000ms, 0968ms total)
T0B0C 002:310 JLINK_SetBPEx(Addr = 0x20000000, Type = 0xFFFFFFF2)  returns 0x00000008 (0000ms, 0968ms total)
T0B0C 002:311 JLINK_Go() (0001ms, 0970ms total)
T0B0C 002:313 JLINK_IsHalted()  returns FALSE (0000ms, 0971ms total)
T0B0C 002:397 JLINK_IsHalted() -- CPU_ReadMem(2 bytes @ 0x20000000)  returns TRUE (0003ms, 0974ms total)
T0B0C 002:401 JLINK_ReadReg(R15 (PC))  returns 0x20000000 (0000ms, 0971ms total)
T0B0C 002:401 JLINK_ClrBPEx(BPHandle = 0x00000008)  returns 0x00 (0001ms, 0972ms total)
T0B0C 002:402 JLINK_ReadReg(R0)  returns 0x00000000 (0000ms, 0972ms total)
T0B0C 002:404 JLINK_WriteMem(0x20000188, 0x0400 Bytes, ...) - Data: 0D 46 21 46 10 68 AF F3 00 80 21 88 09 05 02 D5 ... -- CPU_WriteMem(1024 bytes @ 0x20000188)  returns 0x400 (0008ms, 0980ms total)
T0B0C 002:412 JLINK_WriteReg(R0, 0x08000400)  returns 0x00 (0000ms, 0980ms total)
T0B0C 002:412 JLINK_WriteReg(R1, 0x00000400)  returns 0x00 (0001ms, 0981ms total)
T0B0C 002:413 JLINK_WriteReg(R2, 0x20000188)  returns 0x00 (0000ms, 0981ms total)
T0B0C 002:413 JLINK_WriteReg(R3, 0x00000000)  returns 0x00 (0001ms, 0982ms total)
T0B0C 002:414 JLINK_WriteReg(R4, 0x00000000)  returns 0x00 (0000ms, 0982ms total)
T0B0C 002:414 JLINK_WriteReg(R5, 0x00000000)  returns 0x00 (0001ms, 0983ms total)
T0B0C 002:415 JLINK_WriteReg(R6, 0x00000000)  returns 0x00 (0000ms, 0983ms total)
T0B0C 002:415 JLINK_WriteReg(R7, 0x00000000)  returns 0x00 (0001ms, 0984ms total)
T0B0C 002:416 JLINK_WriteReg(R8, 0x00000000)  returns 0x00 (0000ms, 0984ms total)
T0B0C 002:416 JLINK_WriteReg(R9, 0x20000184)  returns 0x00 (0001ms, 0985ms total)
T0B0C 002:417 JLINK_WriteReg(R10, 0x00000000)  returns 0x00 (0000ms, 0985ms total)
T0B0C 002:417 JLINK_WriteReg(R11, 0x00000000)  returns 0x00 (0001ms, 0986ms total)
T0B0C 002:418 JLINK_WriteReg(R12, 0x00000000)  returns 0x00 (0000ms, 0986ms total)
T0B0C 002:418 JLINK_WriteReg(R13 (SP), 0x20001000)  returns 0x00 (0001ms, 0987ms total)
T0B0C 002:419 JLINK_WriteReg(R14, 0x20000001)  returns 0x00 (0000ms, 0987ms total)
T0B0C 002:419 JLINK_WriteReg(R15 (PC), 0x20000112)  returns 0x00 (0001ms, 0988ms total)
T0B0C 002:420 JLINK_WriteReg(XPSR, 0x01000000)  returns 0x00 (0000ms, 0988ms total)
T0B0C 002:420 JLINK_WriteReg(MSP, 0x20001000)  returns 0x00 (0001ms, 0989ms total)
T0B0C 002:421 JLINK_WriteReg(PSP, 0x20001000)  returns 0x00 (0000ms, 0989ms total)
T0B0C 002:421 JLINK_WriteReg(CFBP, 0x00000000)  returns 0x00 (0001ms, 0990ms total)
T0B0C 002:422 JLINK_SetBPEx(Addr = 0x20000000, Type = 0xFFFFFFF2)  returns 0x00000009 (0000ms, 0990ms total)
T0B0C 002:422 JLINK_Go() (0002ms, 0992ms total)
T0B0C 002:424 JLINK_IsHalted()  returns FALSE (0001ms, 0993ms total)
T0B0C 002:553 JLINK_IsHalted() -- CPU_ReadMem(2 bytes @ 0x20000000)  returns TRUE (0004ms, 0996ms total)
T0B0C 002:557 JLINK_ReadReg(R15 (PC))  returns 0x20000000 (0000ms, 0992ms total)
T0B0C 002:557 JLINK_ClrBPEx(BPHandle = 0x00000009)  returns 0x00 (0001ms, 0993ms total)
T0B0C 002:558 JLINK_ReadReg(R0)  returns 0x00000000 (0000ms, 0993ms total)
T0B0C 002:560 JLINK_WriteMem(0x20000188, 0x0400 Bytes, ...) - Data: 41 EC 19 0B 9F ED 69 0B 53 EC 10 2B 03 F0 B2 FE ... -- CPU_WriteMem(1024 bytes @ 0x20000188)  returns 0x400 (0007ms, 1000ms total)
T0B0C 002:567 JLINK_WriteReg(R0, 0x08000800)  returns 0x00 (0000ms, 1000ms total)
T0B0C 002:567 JLINK_WriteReg(R1, 0x00000400)  returns 0x00 (0001ms, 1001ms total)
T0B0C 002:568 JLINK_WriteReg(R2, 0x20000188)  returns 0x00 (0000ms, 1001ms total)
T0B0C 002:568 JLINK_WriteReg(R3, 0x00000000)  returns 0x00 (0001ms, 1002ms total)
T0B0C 002:569 JLINK_WriteReg(R4, 0x00000000)  returns 0x00 (0000ms, 1002ms total)
T0B0C 002:569 JLINK_WriteReg(R5, 0x00000000)  returns 0x00 (0001ms, 1003ms total)
T0B0C 002:570 JLINK_WriteReg(R6, 0x00000000)  returns 0x00 (0000ms, 1003ms total)
T0B0C 002:570 JLINK_WriteReg(R7, 0x00000000)  returns 0x00 (0001ms, 1004ms total)
T0B0C 002:571 JLINK_WriteReg(R8, 0x00000000)  returns 0x00 (0000ms, 1004ms total)
T0B0C 002:571 JLINK_WriteReg(R9, 0x20000184)  returns 0x00 (0001ms, 1005ms total)
T0B0C 002:572 JLINK_WriteReg(R10, 0x00000000)  returns 0x00 (0000ms, 1005ms total)
T0B0C 002:572 JLINK_WriteReg(R11, 0x00000000)  returns 0x00 (0001ms, 1006ms total)
T0B0C 002:573 JLINK_WriteReg(R12, 0x00000000)  returns 0x00 (0000ms, 1006ms total)
T0B0C 002:573 JLINK_WriteReg(R13 (SP), 0x20001000)  returns 0x00 (0001ms, 1007ms total)
T0B0C 002:574 JLINK_WriteReg(R14, 0x20000001)  returns 0x00 (0000ms, 1007ms total)
T0B0C 002:575 JLINK_WriteReg(R15 (PC), 0x20000112)  returns 0x00 (0000ms, 1008ms total)
T0B0C 002:575 JLINK_WriteReg(XPSR, 0x01000000)  returns 0x00 (0000ms, 1008ms total)
T0B0C 002:576 JLINK_WriteReg(MSP, 0x20001000)  returns 0x00 (0000ms, 1009ms total)
T0B0C 002:576 JLINK_WriteReg(PSP, 0x20001000)  returns 0x00 (0000ms, 1009ms total)
T0B0C 002:577 JLINK_WriteReg(CFBP, 0x00000000)  returns 0x00 (0000ms, 1010ms total)
T0B0C 002:577 JLINK_SetBPEx(Addr = 0x20000000, Type = 0xFFFFFFF2)  returns 0x0000000A (0000ms, 1010ms total)
T0B0C 002:578 JLINK_Go() (0001ms, 1011ms total)
T0B0C 002:580 JLINK_IsHalted()  returns FALSE (0001ms, 1013ms total)
T0B0C 002:647 JLINK_IsHalted() -- CPU_ReadMem(2 bytes @ 0x20000000)  returns TRUE (0003ms, 1015ms total)
T0B0C 002:651 JLINK_ReadReg(R15 (PC))  returns 0x20000000 (0000ms, 1012ms total)
T0B0C 002:651 JLINK_ClrBPEx(BPHandle = 0x0000000A)  returns 0x00 (0001ms, 1013ms total)
T0B0C 002:652 JLINK_ReadReg(R0)  returns 0x00000000 (0000ms, 1013ms total)
T0B0C 002:656 JLINK_WriteMem(0x20000188, 0x0400 Bytes, ...) - Data: 0F 26 BE 40 B5 43 CF 10 00 F1 20 06 46 F8 27 50 ... -- CPU_WriteMem(1024 bytes @ 0x20000188)  returns 0x400 (0008ms, 1022ms total)
T0B0C 002:664 JLINK_WriteReg(R0, 0x08000C00)  returns 0x00 (0000ms, 1022ms total)
T0B0C 002:664 JLINK_WriteReg(R1, 0x00000400)  returns 0x00 (0001ms, 1023ms total)
T0B0C 002:665 JLINK_WriteReg(R2, 0x20000188)  returns 0x00 (0000ms, 1023ms total)
T0B0C 002:665 JLINK_WriteReg(R3, 0x00000000)  returns 0x00 (0001ms, 1024ms total)
T0B0C 002:666 JLINK_WriteReg(R4, 0x00000000)  returns 0x00 (0000ms, 1024ms total)
T0B0C 002:666 JLINK_WriteReg(R5, 0x00000000)  returns 0x00 (0001ms, 1025ms total)
T0B0C 002:667 JLINK_WriteReg(R6, 0x00000000)  returns 0x00 (0000ms, 1025ms total)
T0B0C 002:667 JLINK_WriteReg(R7, 0x00000000)  returns 0x00 (0001ms, 1026ms total)
T0B0C 002:668 JLINK_WriteReg(R8, 0x00000000)  returns 0x00 (0000ms, 1026ms total)
T0B0C 002:668 JLINK_WriteReg(R9, 0x20000184)  returns 0x00 (0001ms, 1027ms total)
T0B0C 002:669 JLINK_WriteReg(R10, 0x00000000)  returns 0x00 (0000ms, 1027ms total)
T0B0C 002:669 JLINK_WriteReg(R11, 0x00000000)  returns 0x00 (0001ms, 1028ms total)
T0B0C 002:670 JLINK_WriteReg(R12, 0x00000000)  returns 0x00 (0000ms, 1028ms total)
T0B0C 002:670 JLINK_WriteReg(R13 (SP), 0x20001000)  returns 0x00 (0001ms, 1029ms total)
T0B0C 002:671 JLINK_WriteReg(R14, 0x20000001)  returns 0x00 (0000ms, 1029ms total)
T0B0C 002:671 JLINK_WriteReg(R15 (PC), 0x20000112)  returns 0x00 (0001ms, 1030ms total)
T0B0C 002:672 JLINK_WriteReg(XPSR, 0x01000000)  returns 0x00 (0000ms, 1030ms total)
T0B0C 002:672 JLINK_WriteReg(MSP, 0x20001000)  returns 0x00 (0001ms, 1031ms total)
T0B0C 002:673 JLINK_WriteReg(PSP, 0x20001000)  returns 0x00 (0000ms, 1031ms total)
T0B0C 002:673 JLINK_WriteReg(CFBP, 0x00000000)  returns 0x00 (0001ms, 1032ms total)
T0B0C 002:674 JLINK_SetBPEx(Addr = 0x20000000, Type = 0xFFFFFFF2)  returns 0x0000000B (0000ms, 1032ms total)
T0B0C 002:674 JLINK_Go() (0002ms, 1034ms total)
T0B0C 002:677 JLINK_IsHalted()  returns FALSE (0001ms, 1036ms total)
T0B0C 002:745 JLINK_IsHalted() -- CPU_ReadMem(2 bytes @ 0x20000000)  returns TRUE (0004ms, 1039ms total)
T0B0C 002:749 JLINK_ReadReg(R15 (PC))  returns 0x20000000 (0000ms, 1035ms total)
T0B0C 002:749 JLINK_ClrBPEx(BPHandle = 0x0000000B)  returns 0x00 (0001ms, 1036ms total)
T0B0C 002:750 JLINK_ReadReg(R0)  returns 0x00000000 (0000ms, 1036ms total)
T0B0C 002:754 JLINK_WriteMem(0x20000188, 0x0400 Bytes, ...) - Data: A8 20 00 F0 83 F8 00 21 3F 20 00 F0 7F F8 00 21 ... -- CPU_WriteMem(1024 bytes @ 0x20000188)  returns 0x400 (0007ms, 1043ms total)
T0B0C 002:761 JLINK_WriteReg(R0, 0x08001000)  returns 0x00 (0001ms, 1044ms total)
T0B0C 002:762 JLINK_WriteReg(R1, 0x00000400)  returns 0x00 (0000ms, 1044ms total)
T0B0C 002:762 JLINK_WriteReg(R2, 0x20000188)  returns 0x00 (0001ms, 1045ms total)
T0B0C 002:763 JLINK_WriteReg(R3, 0x00000000)  returns 0x00 (0000ms, 1045ms total)
T0B0C 002:763 JLINK_WriteReg(R4, 0x00000000)  returns 0x00 (0001ms, 1046ms total)
T0B0C 002:764 JLINK_WriteReg(R5, 0x00000000)  returns 0x00 (0000ms, 1046ms total)
T0B0C 002:764 JLINK_WriteReg(R6, 0x00000000)  returns 0x00 (0001ms, 1047ms total)
T0B0C 002:765 JLINK_WriteReg(R7, 0x00000000)  returns 0x00 (0000ms, 1047ms total)
T0B0C 002:765 JLINK_WriteReg(R8, 0x00000000)  returns 0x00 (0001ms, 1048ms total)
T0B0C 002:766 JLINK_WriteReg(R9, 0x20000184)  returns 0x00 (0000ms, 1048ms total)
T0B0C 002:766 JLINK_WriteReg(R10, 0x00000000)  returns 0x00 (0001ms, 1049ms total)
T0B0C 002:767 JLINK_WriteReg(R11, 0x00000000)  returns 0x00 (0000ms, 1049ms total)
T0B0C 002:767 JLINK_WriteReg(R12, 0x00000000)  returns 0x00 (0001ms, 1050ms total)
T0B0C 002:768 JLINK_WriteReg(R13 (SP), 0x20001000)  returns 0x00 (0000ms, 1050ms total)
T0B0C 002:768 JLINK_WriteReg(R14, 0x20000001)  returns 0x00 (0001ms, 1051ms total)
T0B0C 002:769 JLINK_WriteReg(R15 (PC), 0x20000112)  returns 0x00 (0000ms, 1051ms total)
T0B0C 002:769 JLINK_WriteReg(XPSR, 0x01000000)  returns 0x00 (0001ms, 1052ms total)
T0B0C 002:770 JLINK_WriteReg(MSP, 0x20001000)  returns 0x00 (0000ms, 1052ms total)
T0B0C 002:770 JLINK_WriteReg(PSP, 0x20001000)  returns 0x00 (0001ms, 1053ms total)
T0B0C 002:771 JLINK_WriteReg(CFBP, 0x00000000)  returns 0x00 (0000ms, 1053ms total)
T0B0C 002:771 JLINK_SetBPEx(Addr = 0x20000000, Type = 0xFFFFFFF2)  returns 0x0000000C (0001ms, 1054ms total)
T0B0C 002:772 JLINK_Go() (0002ms, 1056ms total)
T0B0C 002:774 JLINK_IsHalted()  returns FALSE (0001ms, 1057ms total)
T0B0C 002:864 JLINK_IsHalted() -- CPU_ReadMem(2 bytes @ 0x20000000)  returns TRUE (0004ms, 1060ms total)
T0B0C 002:868 JLINK_ReadReg(R15 (PC))  returns 0x20000000 (0000ms, 1056ms total)
T0B0C 002:868 JLINK_ClrBPEx(BPHandle = 0x0000000C)  returns 0x00 (0001ms, 1057ms total)
T0B0C 002:869 JLINK_ReadReg(R0)  returns 0x00000000 (0000ms, 1057ms total)
T0B0C 002:871 JLINK_WriteMem(0x20000188, 0x0400 Bytes, ...) - Data: A0 F5 FE 40 FF 38 27 49 48 60 08 46 00 69 49 68 ... -- CPU_WriteMem(1024 bytes @ 0x20000188)  returns 0x400 (0008ms, 1065ms total)
T0B0C 002:879 JLINK_WriteReg(R0, 0x08001400)  returns 0x00 (0000ms, 1065ms total)
T0B0C 002:879 JLINK_WriteReg(R1, 0x00000400)  returns 0x00 (0000ms, 1065ms total)
T0B0C 002:879 JLINK_WriteReg(R2, 0x20000188)  returns 0x00 (0001ms, 1066ms total)
T0B0C 002:880 JLINK_WriteReg(R3, 0x00000000)  returns 0x00 (0000ms, 1066ms total)
T0B0C 002:880 JLINK_WriteReg(R4, 0x00000000)  returns 0x00 (0001ms, 1067ms total)
T0B0C 002:881 JLINK_WriteReg(R5, 0x00000000)  returns 0x00 (0000ms, 1067ms total)
T0B0C 002:881 JLINK_WriteReg(R6, 0x00000000)  returns 0x00 (0001ms, 1068ms total)
T0B0C 002:882 JLINK_WriteReg(R7, 0x00000000)  returns 0x00 (0000ms, 1068ms total)
T0B0C 002:882 JLINK_WriteReg(R8, 0x00000000)  returns 0x00 (0001ms, 1069ms total)
T0B0C 002:883 JLINK_WriteReg(R9, 0x20000184)  returns 0x00 (0000ms, 1069ms total)
T0B0C 002:883 JLINK_WriteReg(R10, 0x00000000)  returns 0x00 (0001ms, 1070ms total)
T0B0C 002:884 JLINK_WriteReg(R11, 0x00000000)  returns 0x00 (0000ms, 1070ms total)
T0B0C 002:884 JLINK_WriteReg(R12, 0x00000000)  returns 0x00 (0001ms, 1071ms total)
T0B0C 002:885 JLINK_WriteReg(R13 (SP), 0x20001000)  returns 0x00 (0000ms, 1071ms total)
T0B0C 002:885 JLINK_WriteReg(R14, 0x20000001)  returns 0x00 (0001ms, 1072ms total)
T0B0C 002:886 JLINK_WriteReg(R15 (PC), 0x20000112)  returns 0x00 (0000ms, 1072ms total)
T0B0C 002:886 JLINK_WriteReg(XPSR, 0x01000000)  returns 0x00 (0001ms, 1073ms total)
T0B0C 002:887 JLINK_WriteReg(MSP, 0x20001000)  returns 0x00 (0000ms, 1073ms total)
T0B0C 002:888 JLINK_WriteReg(PSP, 0x20001000)  returns 0x00 (0000ms, 1073ms total)
T0B0C 002:888 JLINK_WriteReg(CFBP, 0x00000000)  returns 0x00 (0000ms, 1073ms total)
T0B0C 002:888 JLINK_SetBPEx(Addr = 0x20000000, Type = 0xFFFFFFF2)  returns 0x0000000D (0001ms, 1074ms total)
T0B0C 002:889 JLINK_Go() (0002ms, 1076ms total)
T0B0C 002:891 JLINK_IsHalted()  returns FALSE (0001ms, 1077ms total)
T0B0C 002:964 JLINK_IsHalted() -- CPU_ReadMem(2 bytes @ 0x20000000)  returns TRUE (0003ms, 1079ms total)
T0B0C 002:967 JLINK_ReadReg(R15 (PC))  returns 0x20000000 (0001ms, 1077ms total)
T0B0C 002:968 JLINK_ClrBPEx(BPHandle = 0x0000000D)  returns 0x00 (0000ms, 1077ms total)
T0B0C 002:968 JLINK_ReadReg(R0)  returns 0x00000000 (0001ms, 1078ms total)
T0B0C 002:971 JLINK_WriteMem(0x20000188, 0x0400 Bytes, ...) - Data: 01 8B 02 8C 4F F6 0C 76 31 40 7E 1C 06 EA 03 16 ... -- CPU_WriteMem(1024 bytes @ 0x20000188)  returns 0x400 (0007ms, 1085ms total)
T0B0C 002:978 JLINK_WriteReg(R0, 0x08001800)  returns 0x00 (0000ms, 1085ms total)
T0B0C 002:978 JLINK_WriteReg(R1, 0x00000400)  returns 0x00 (0001ms, 1086ms total)
T0B0C 002:979 JLINK_WriteReg(R2, 0x20000188)  returns 0x00 (0000ms, 1086ms total)
T0B0C 002:980 JLINK_WriteReg(R3, 0x00000000)  returns 0x00 (0000ms, 1086ms total)
T0B0C 002:980 JLINK_WriteReg(R4, 0x00000000)  returns 0x00 (0000ms, 1086ms total)
T0B0C 002:981 JLINK_WriteReg(R5, 0x00000000)  returns 0x00 (0000ms, 1087ms total)
T0B0C 002:981 JLINK_WriteReg(R6, 0x00000000)  returns 0x00 (0000ms, 1087ms total)
T0B0C 002:982 JLINK_WriteReg(R7, 0x00000000)  returns 0x00 (0000ms, 1088ms total)
T0B0C 002:982 JLINK_WriteReg(R8, 0x00000000)  returns 0x00 (0000ms, 1088ms total)
T0B0C 002:983 JLINK_WriteReg(R9, 0x20000184)  returns 0x00 (0000ms, 1089ms total)
T0B0C 002:983 JLINK_WriteReg(R10, 0x00000000)  returns 0x00 (0001ms, 1090ms total)
T0B0C 002:984 JLINK_WriteReg(R11, 0x00000000)  returns 0x00 (0000ms, 1090ms total)
T0B0C 002:985 JLINK_WriteReg(R12, 0x00000000)  returns 0x00 (0000ms, 1090ms total)
T0B0C 002:985 JLINK_WriteReg(R13 (SP), 0x20001000)  returns 0x00 (0000ms, 1090ms total)
T0B0C 002:986 JLINK_WriteReg(R14, 0x20000001)  returns 0x00 (0000ms, 1091ms total)
T0B0C 002:986 JLINK_WriteReg(R15 (PC), 0x20000112)  returns 0x00 (0000ms, 1091ms total)
T0B0C 002:987 JLINK_WriteReg(XPSR, 0x01000000)  returns 0x00 (0000ms, 1092ms total)
T0B0C 002:987 JLINK_WriteReg(MSP, 0x20001000)  returns 0x00 (0000ms, 1092ms total)
T0B0C 002:988 JLINK_WriteReg(PSP, 0x20001000)  returns 0x00 (0000ms, 1093ms total)
T0B0C 002:988 JLINK_WriteReg(CFBP, 0x00000000)  returns 0x00 (0000ms, 1093ms total)
T0B0C 002:989 JLINK_SetBPEx(Addr = 0x20000000, Type = 0xFFFFFFF2)  returns 0x0000000E (0000ms, 1094ms total)
T0B0C 002:989 JLINK_Go() (0002ms, 1096ms total)
T0B0C 002:991 JLINK_IsHalted()  returns FALSE (0001ms, 1097ms total)
T0B0C 003:101 JLINK_IsHalted() -- CPU_ReadMem(2 bytes @ 0x20000000)  returns TRUE (0004ms, 1100ms total)
T0B0C 003:105 JLINK_ReadReg(R15 (PC))  returns 0x20000000 (0000ms, 1096ms total)
T0B0C 003:105 JLINK_ClrBPEx(BPHandle = 0x0000000E)  returns 0x00 (0001ms, 1097ms total)
T0B0C 003:106 JLINK_ReadReg(R0)  returns 0x00000000 (0000ms, 1097ms total)
T0B0C 003:108 JLINK_WriteMem(0x20000188, 0x0400 Bytes, ...) - Data: 75 FB 00 21 02 20 FF F7 71 FB 49 E0 2C 48 84 42 ... -- CPU_WriteMem(1024 bytes @ 0x20000188)  returns 0x400 (0007ms, 1104ms total)
T0B0C 003:115 JLINK_WriteReg(R0, 0x08001C00)  returns 0x00 (0001ms, 1105ms total)
T0B0C 003:116 JLINK_WriteReg(R1, 0x00000400)  returns 0x00 (0000ms, 1105ms total)
T0B0C 003:116 JLINK_WriteReg(R2, 0x20000188)  returns 0x00 (0001ms, 1106ms total)
T0B0C 003:117 JLINK_WriteReg(R3, 0x00000000)  returns 0x00 (0000ms, 1106ms total)
T0B0C 003:118 JLINK_WriteReg(R4, 0x00000000)  returns 0x00 (0000ms, 1107ms total)
T0B0C 003:118 JLINK_WriteReg(R5, 0x00000000)  returns 0x00 (0001ms, 1108ms total)
T0B0C 003:119 JLINK_WriteReg(R6, 0x00000000)  returns 0x00 (0000ms, 1108ms total)
T0B0C 003:119 JLINK_WriteReg(R7, 0x00000000)  returns 0x00 (0001ms, 1109ms total)
T0B0C 003:120 JLINK_WriteReg(R8, 0x00000000)  returns 0x00 (0000ms, 1109ms total)
T0B0C 003:120 JLINK_WriteReg(R9, 0x20000184)  returns 0x00 (0001ms, 1110ms total)
T0B0C 003:121 JLINK_WriteReg(R10, 0x00000000)  returns 0x00 (0000ms, 1110ms total)
T0B0C 003:121 JLINK_WriteReg(R11, 0x00000000)  returns 0x00 (0001ms, 1111ms total)
T0B0C 003:122 JLINK_WriteReg(R12, 0x00000000)  returns 0x00 (0000ms, 1111ms total)
T0B0C 003:122 JLINK_WriteReg(R13 (SP), 0x20001000)  returns 0x00 (0001ms, 1112ms total)
T0B0C 003:123 JLINK_WriteReg(R14, 0x20000001)  returns 0x00 (0000ms, 1112ms total)
T0B0C 003:123 JLINK_WriteReg(R15 (PC), 0x20000112)  returns 0x00 (0001ms, 1113ms total)
T0B0C 003:124 JLINK_WriteReg(XPSR, 0x01000000)  returns 0x00 (0000ms, 1113ms total)
T0B0C 003:124 JLINK_WriteReg(MSP, 0x20001000)  returns 0x00 (0001ms, 1114ms total)
T0B0C 003:125 JLINK_WriteReg(PSP, 0x20001000)  returns 0x00 (0000ms, 1114ms total)
T0B0C 003:125 JLINK_WriteReg(CFBP, 0x00000000)  returns 0x00 (0001ms, 1115ms total)
T0B0C 003:126 JLINK_SetBPEx(Addr = 0x20000000, Type = 0xFFFFFFF2)  returns 0x0000000F (0000ms, 1115ms total)
T0B0C 003:126 JLINK_Go() (0002ms, 1117ms total)
T0B0C 003:128 JLINK_IsHalted()  returns FALSE (0001ms, 1118ms total)
T0B0C 003:197 JLINK_IsHalted() -- CPU_ReadMem(2 bytes @ 0x20000000)  returns TRUE (0004ms, 1121ms total)
T0B0C 003:201 JLINK_ReadReg(R15 (PC))  returns 0x20000000 (0000ms, 1117ms total)
T0B0C 003:201 JLINK_ClrBPEx(BPHandle = 0x0000000F)  returns 0x00 (0001ms, 1118ms total)
T0B0C 003:202 JLINK_ReadReg(R0)  returns 0x00000000 (0000ms, 1118ms total)
T0B0C 003:204 JLINK_WriteMem(0x20000188, 0x0400 Bytes, ...) - Data: 03 86 01 23 83 82 70 47 00 00 01 40 00 04 01 40 ... -- CPU_WriteMem(1024 bytes @ 0x20000188)  returns 0x400 (0008ms, 1126ms total)
T0B0C 003:212 JLINK_WriteReg(R0, 0x08002000)  returns 0x00 (0000ms, 1126ms total)
T0B0C 003:212 JLINK_WriteReg(R1, 0x00000400)  returns 0x00 (0001ms, 1127ms total)
T0B0C 003:213 JLINK_WriteReg(R2, 0x20000188)  returns 0x00 (0000ms, 1127ms total)
T0B0C 003:213 JLINK_WriteReg(R3, 0x00000000)  returns 0x00 (0001ms, 1128ms total)
T0B0C 003:214 JLINK_WriteReg(R4, 0x00000000)  returns 0x00 (0000ms, 1128ms total)
T0B0C 003:214 JLINK_WriteReg(R5, 0x00000000)  returns 0x00 (0001ms, 1129ms total)
T0B0C 003:215 JLINK_WriteReg(R6, 0x00000000)  returns 0x00 (0000ms, 1129ms total)
T0B0C 003:215 JLINK_WriteReg(R7, 0x00000000)  returns 0x00 (0001ms, 1130ms total)
T0B0C 003:216 JLINK_WriteReg(R8, 0x00000000)  returns 0x00 (0000ms, 1130ms total)
T0B0C 003:216 JLINK_WriteReg(R9, 0x20000184)  returns 0x00 (0001ms, 1131ms total)
T0B0C 003:217 JLINK_WriteReg(R10, 0x00000000)  returns 0x00 (0001ms, 1132ms total)
T0B0C 003:218 JLINK_WriteReg(R11, 0x00000000)  returns 0x00 (0000ms, 1132ms total)
T0B0C 003:219 JLINK_WriteReg(R12, 0x00000000)  returns 0x00 (0000ms, 1133ms total)
T0B0C 003:219 JLINK_WriteReg(R13 (SP), 0x20001000)  returns 0x00 (0001ms, 1134ms total)
T0B0C 003:220 JLINK_WriteReg(R14, 0x20000001)  returns 0x00 (0000ms, 1134ms total)
T0B0C 003:220 JLINK_WriteReg(R15 (PC), 0x20000112)  returns 0x00 (0001ms, 1135ms total)
T0B0C 003:221 JLINK_WriteReg(XPSR, 0x01000000)  returns 0x00 (0000ms, 1135ms total)
T0B0C 003:221 JLINK_WriteReg(MSP, 0x20001000)  returns 0x00 (0000ms, 1135ms total)
T0B0C 003:221 JLINK_WriteReg(PSP, 0x20001000)  returns 0x00 (0000ms, 1135ms total)
T0B0C 003:221 JLINK_WriteReg(CFBP, 0x00000000)  returns 0x00 (0002ms, 1137ms total)
T0B0C 003:223 JLINK_SetBPEx(Addr = 0x20000000, Type = 0xFFFFFFF2)  returns 0x00000010 (0000ms, 1137ms total)
T0B0C 003:223 JLINK_Go() (0001ms, 1138ms total)
T0B0C 003:224 JLINK_IsHalted()  returns FALSE (0002ms, 1140ms total)
T0B0C 003:289 JLINK_IsHalted() -- CPU_ReadMem(2 bytes @ 0x20000000)  returns TRUE (0004ms, 1142ms total)
T0B0C 003:293 JLINK_ReadReg(R15 (PC))  returns 0x20000000 (0000ms, 1138ms total)
T0B0C 003:293 JLINK_ClrBPEx(BPHandle = 0x00000010)  returns 0x00 (0001ms, 1139ms total)
T0B0C 003:294 JLINK_ReadReg(R0)  returns 0x00000000 (0000ms, 1139ms total)
T0B0C 003:297 JLINK_WriteMem(0x20000188, 0x0400 Bytes, ...) - Data: B7 FB F0 F0 04 01 20 09 64 21 01 FB 10 78 A8 89 ... -- CPU_WriteMem(1024 bytes @ 0x20000188)  returns 0x400 (0008ms, 1147ms total)
T0B0C 003:305 JLINK_WriteReg(R0, 0x08002400)  returns 0x00 (0001ms, 1148ms total)
T0B0C 003:306 JLINK_WriteReg(R1, 0x00000400)  returns 0x00 (0000ms, 1148ms total)
T0B0C 003:306 JLINK_WriteReg(R2, 0x20000188)  returns 0x00 (0001ms, 1149ms total)
T0B0C 003:307 JLINK_WriteReg(R3, 0x00000000)  returns 0x00 (0000ms, 1149ms total)
T0B0C 003:307 JLINK_WriteReg(R4, 0x00000000)  returns 0x00 (0001ms, 1150ms total)
T0B0C 003:308 JLINK_WriteReg(R5, 0x00000000)  returns 0x00 (0000ms, 1150ms total)
T0B0C 003:308 JLINK_WriteReg(R6, 0x00000000)  returns 0x00 (0001ms, 1151ms total)
T0B0C 003:309 JLINK_WriteReg(R7, 0x00000000)  returns 0x00 (0000ms, 1151ms total)
T0B0C 003:309 JLINK_WriteReg(R8, 0x00000000)  returns 0x00 (0001ms, 1152ms total)
T0B0C 003:310 JLINK_WriteReg(R9, 0x20000184)  returns 0x00 (0000ms, 1152ms total)
T0B0C 003:310 JLINK_WriteReg(R10, 0x00000000)  returns 0x00 (0001ms, 1153ms total)
T0B0C 003:311 JLINK_WriteReg(R11, 0x00000000)  returns 0x00 (0000ms, 1153ms total)
T0B0C 003:311 JLINK_WriteReg(R12, 0x00000000)  returns 0x00 (0001ms, 1154ms total)
T0B0C 003:312 JLINK_WriteReg(R13 (SP), 0x20001000)  returns 0x00 (0000ms, 1154ms total)
T0B0C 003:312 JLINK_WriteReg(R14, 0x20000001)  returns 0x00 (0001ms, 1155ms total)
T0B0C 003:313 JLINK_WriteReg(R15 (PC), 0x20000112)  returns 0x00 (0000ms, 1155ms total)
T0B0C 003:313 JLINK_WriteReg(XPSR, 0x01000000)  returns 0x00 (0001ms, 1156ms total)
T0B0C 003:314 JLINK_WriteReg(MSP, 0x20001000)  returns 0x00 (0000ms, 1156ms total)
T0B0C 003:314 JLINK_WriteReg(PSP, 0x20001000)  returns 0x00 (0001ms, 1157ms total)
T0B0C 003:315 JLINK_WriteReg(CFBP, 0x00000000)  returns 0x00 (0000ms, 1157ms total)
